Element, Terminal, P(kW), Q(kvar),  P_Normal, Q_Normal, P_Emergency, Q_Emergency
"Capacitor.CAPACITOR 01",   1,        -0.0,      -653.1,         0.0,         0.0,         0.0,         0.0
"Capacitor.CAPACITOR 01",   2,         0.0,         0.0
"Capacitor.CAPACITOR 02",   1,        -0.0,       -54.0,         0.0,         0.0,         0.0,         0.0
"Capacitor.CAPACITOR 02",   2,         0.0,         0.0
"Capacitor.CAPACITOR 03",   1,         0.0,       -54.2,         0.0,         0.0,         0.0,         0.0
"Capacitor.CAPACITOR 03",   2,         0.0,         0.0
"Capacitor.CAPACITOR 04",   1,         0.0,       -53.4,         0.0,         0.0,         0.0,         0.0
"Capacitor.CAPACITOR 04",   2,         0.0,         0.0
"Line.L115"             ,   1,      3517.2,      1249.9,       474.3,       168.6,         0.0,         0.0
"Line.L115"             ,   2,     -3498.9,     -1211.0
"Line.LINE L1"          ,   1,        20.0,        10.0,         0.0,         0.0,         0.0,         0.0
"Line.LINE L1"          ,   2,       -20.0,       -10.0
"Line.LINE L10"         ,   1,      3175.8,      1015.5,        51.5,        16.5,         0.0,         0.0
"Line.LINE L10"         ,   2,     -3164.7,      -991.9
"Line.LINE L100"        ,   1,       100.3,        50.4,         0.0,         0.0,         0.0,         0.0
"Line.LINE L100"        ,   2,      -100.2,       -50.3
"Line.LINE L101"        ,   1,       228.0,       115.2,         0.0,         0.0,         0.0,         0.0
"Line.LINE L101"        ,   2,      -227.9,      -114.9
"Line.LINE L102"        ,   1,        80.2,        40.3,         0.0,         0.0,         0.0,         0.0
"Line.LINE L102"        ,   2,       -80.1,       -40.2
"Line.LINE L103"        ,   1,        40.1,        20.1,         0.0,         0.0,         0.0,         0.0
"Line.LINE L103"        ,   2,       -40.0,       -20.0
"Line.LINE L104"        ,   1,        80.1,        40.2,         0.0,         0.0,         0.0,         0.0
"Line.LINE L104"        ,   2,       -80.0,       -40.1
"Line.LINE L105"        ,   1,       147.8,        74.7,         0.0,         0.0,         0.0,         0.0
"Line.LINE L105"        ,   2,      -147.7,       -74.4
"Line.LINE L106"        ,   1,        40.0,        20.1,         0.0,         0.0,         0.0,         0.0
"Line.LINE L106"        ,   2,       -40.0,       -20.0
"Line.LINE L107"        ,   1,       147.7,        74.4,         0.0,         0.0,         0.0,         0.0
"Line.LINE L107"        ,   2,      -147.2,       -73.9
"Line.LINE L108"        ,   1,         0.0,        -0.0,         0.0,         0.0,         0.0,         0.0
"Line.LINE L108"        ,   2,        -0.0,         0.0
"Line.LINE L109"        ,   1,       107.2,        53.9,         0.0,         0.0,         0.0,         0.0
"Line.LINE L109"        ,   2,      -107.0,       -53.7
"Line.LINE L11"         ,   1,        60.8,        30.5,         0.0,         0.0,         0.0,         0.0
"Line.LINE L11"         ,   2,       -60.7,       -30.4
"Line.LINE L110"        ,   1,        24.1,        12.1,         0.0,         0.0,         0.0,         0.0
"Line.LINE L110"        ,   2,       -24.1,       -12.1
"Line.LINE L111"        ,   1,        82.9,        41.6,         0.0,         0.0,         0.0,         0.0
"Line.LINE L111"        ,   2,       -82.8,       -41.6
"Line.LINE L112"        ,   1,        62.2,        31.2,         0.0,         0.0,         0.0,         0.0
"Line.LINE L112"        ,   2,       -62.1,       -31.1
"Line.LINE L113"        ,   1,        20.0,        10.0,         0.0,         0.0,         0.0,         0.0
"Line.LINE L113"        ,   2,       -20.0,       -10.0
"Line.LINE L114"        ,   1,       751.1,       471.1,         0.0,         0.0,         0.0,         0.0
"Line.LINE L114"        ,   2,      -750.1,      -469.0
"Line.LINE L116"        ,   1,      1929.6,       269.8,         0.0,         0.0,         0.0,         0.0
"Line.LINE L116"        ,   2,     -1924.4,      -258.7
"Line.LINE L117"        ,   1,      1362.2,       -71.8,         0.0,         0.0,         0.0,         0.0
"Line.LINE L117"        ,   2,     -1360.1,        76.0
"Line.LINE L118"        ,   1,       328.4,       165.8,         0.0,         0.0,         0.0,         0.0
"Line.LINE L118"        ,   2,      -328.3,      -165.6
"Line.LINE L12"         ,   1,       100.2,        50.3,         0.0,         0.0,         0.0,         0.0
"Line.LINE L12"         ,   2,      -100.1,       -50.2
"Line.LINE L13"         ,   1,      1134.6,       671.7,         0.0,         0.0,         0.0,         0.0
"Line.LINE L13"         ,   2,     -1129.8,      -661.8
"Line.LINE L15"         ,   1,        20.1,        10.1,         0.0,         0.0,         0.0,         0.0
"Line.LINE L15"         ,   2,       -20.1,       -10.1
"Line.LINE L16"         ,   1,        40.0,        20.1,         0.0,         0.0,         0.0,         0.0
"Line.LINE L16"         ,   2,       -40.0,       -20.0
"Line.LINE L17"         ,   1,        20.0,        10.0,         0.0,         0.0,         0.0,         0.0
"Line.LINE L17"         ,   2,       -20.0,       -10.0
"Line.LINE L18"         ,   1,        79.6,        39.9,         0.0,         0.0,         0.0,         0.0
"Line.LINE L18"         ,   2,       -79.5,       -39.9
"Line.LINE L19"         ,   1,       299.1,       150.6,         0.0,         0.0,         0.0,         0.0
"Line.LINE L19"         ,   2,      -298.9,      -150.4
"Line.LINE L2"          ,   1,       101.6,        51.0,         0.0,         0.0,         0.0,         0.0
"Line.LINE L2"          ,   2,      -101.4,       -50.9
"Line.LINE L20"         ,   1,        39.5,        19.8,         0.0,         0.0,         0.0,         0.0
"Line.LINE L20"         ,   2,       -39.5,       -19.8
"Line.LINE L21"         ,   1,        40.6,        20.4,         0.0,         0.0,         0.0,         0.0
"Line.LINE L21"         ,   2,       -40.6,       -20.3
"Line.LINE L22"         ,   1,       258.3,       130.0,         0.0,         0.0,         0.0,         0.0
"Line.LINE L22"         ,   2,      -258.2,      -129.7
"Line.LINE L23"         ,   1,        39.2,        19.6,         0.0,         0.0,         0.0,         0.0
"Line.LINE L23"         ,   2,       -39.1,       -19.6
"Line.LINE L24"         ,   1,       219.0,       110.1,         0.0,         0.0,         0.0,         0.0
"Line.LINE L24"         ,   2,      -218.9,      -109.9
"Line.LINE L25A"        ,   1,        40.0,        20.1,         0.0,         0.0,         0.0,         0.0
"Line.LINE L25A"        ,   2,       -40.0,       -20.1
"Line.LINE L25C"        ,   1,        60.0,        30.1,         0.0,         0.0,         0.0,         0.0
"Line.LINE L25C"        ,   2,       -60.0,       -30.1
"Line.LINE L26"         ,   1,       118.9,        59.6,         0.0,         0.0,         0.0,         0.0
"Line.LINE L26"         ,   2,      -118.9,       -59.6
"Line.LINE L27A"        ,   1,        40.0,        20.1,         0.0,         0.0,         0.0,         0.0
"Line.LINE L27A"        ,   2,       -40.0,       -20.1
"Line.LINE L27C"        ,   1,         0.0,        -0.0,         0.0,         0.0,         0.0,         0.0
"Line.LINE L27C"        ,   2,         0.0,         0.0
"Line.LINE L28"         ,   1,        60.0,        30.1,         0.0,         0.0,         0.0,         0.0
"Line.LINE L28"         ,   2,       -60.0,       -30.1
"Line.LINE L29"         ,   1,        40.0,        20.1,         0.0,         0.0,         0.0,         0.0
"Line.LINE L29"         ,   2,       -39.9,       -20.0
"Line.LINE L3"          ,   1,      3337.3,      1129.9,       361.7,       122.5,         0.0,         0.0
"Line.LINE L3"          ,   2,     -3324.9,     -1103.5
"Line.LINE L30"         ,   1,        79.1,        39.7,         0.0,         0.0,         0.0,         0.0
"Line.LINE L30"         ,   2,       -79.1,       -39.6
"Line.LINE L31"         ,   1,        40.0,        20.1,         0.0,         0.0,         0.0,         0.0
"Line.LINE L31"         ,   2,       -40.0,       -20.0
"Line.LINE L32"         ,   1,         0.0,        -0.0,         0.0,         0.0,         0.0,         0.0
"Line.LINE L32"         ,   2,        -0.0,        -0.0
"Line.LINE L33"         ,   1,        40.0,        20.0,         0.0,         0.0,         0.0,         0.0
"Line.LINE L33"         ,   2,       -39.9,       -20.0
"Line.LINE L34"         ,   1,        60.1,        30.1,         0.0,         0.0,         0.0,         0.0
"Line.LINE L34"         ,   2,       -60.0,       -30.1
"Line.LINE L35A"        ,   1,        38.8,        19.5,         0.0,         0.0,         0.0,         0.0
"Line.LINE L35A"        ,   2,       -38.8,       -19.5
"Line.LINE L35B"        ,   1,        40.2,        20.1,         0.0,         0.0,         0.0,         0.0
"Line.LINE L35B"        ,   2,       -40.1,       -20.1
"Line.LINE L36"         ,   1,       631.1,       409.4,         0.0,         0.0,         0.0,         0.0
"Line.LINE L36"         ,   2,      -630.6,      -408.4
"Line.LINE L37"         ,   1,        38.8,        19.5,         0.0,         0.0,         0.0,         0.0
"Line.LINE L37"         ,   2,       -38.8,       -19.4
"Line.LINE L38"         ,   1,        40.1,        20.1,         0.0,         0.0,         0.0,         0.0
"Line.LINE L38"         ,   2,       -40.1,       -20.1
"Line.LINE L39"         ,   1,        20.0,        10.0,         0.0,         0.0,         0.0,         0.0
"Line.LINE L39"         ,   2,       -20.0,       -10.0
"Line.LINE L4"          ,   1,        40.0,        20.1,         0.0,         0.0,         0.0,         0.0
"Line.LINE L4"          ,   2,       -40.0,       -20.0
"Line.LINE L40"         ,   1,        20.0,        10.0,         0.0,         0.0,         0.0,         0.0
"Line.LINE L40"         ,   2,       -20.0,       -10.0
"Line.LINE L41"         ,   1,       610.6,       398.4,         0.0,         0.0,         0.0,         0.0
"Line.LINE L41"         ,   2,      -610.2,      -397.4
"Line.LINE L42"         ,   1,        40.3,        20.2,         0.0,         0.0,         0.0,         0.0
"Line.LINE L42"         ,   2,       -40.2,       -20.2
"Line.LINE L43"         ,   1,       549.9,       367.2,         0.0,         0.0,         0.0,         0.0
"Line.LINE L43"         ,   2,      -549.6,      -366.6
"Line.LINE L44"         ,   1,        39.7,        19.9,         0.0,         0.0,         0.0,         0.0
"Line.LINE L44"         ,   2,       -39.6,       -19.9
"Line.LINE L45"         ,   1,       509.9,       346.7,         0.0,         0.0,         0.0,         0.0
"Line.LINE L45"         ,   2,      -509.6,      -346.1
"Line.LINE L46"         ,   1,        20.0,        10.0,         0.0,         0.0,         0.0,         0.0
"Line.LINE L46"         ,   2,       -20.0,       -10.0
"Line.LINE L47"         ,   1,       205.6,       146.8,         0.0,         0.0,         0.0,         0.0
"Line.LINE L47"         ,   2,      -205.6,      -146.7
"Line.LINE L48"         ,   1,       200.1,       125.1,         0.0,         0.0,         0.0,         0.0
"Line.LINE L48"         ,   2,      -200.0,      -125.0
"Line.LINE L49"         ,   1,        60.0,        30.1,         0.0,         0.0,         0.0,         0.0
"Line.LINE L49"         ,   2,       -60.0,       -30.1
"Line.LINE L5"          ,   1,        61.4,        30.8,         0.0,         0.0,         0.0,         0.0
"Line.LINE L5"          ,   2,       -61.3,       -30.8
"Line.LINE L50"         ,   1,        20.0,        10.0,         0.0,         0.0,         0.0,         0.0
"Line.LINE L50"         ,   2,       -20.0,       -10.0
"Line.LINE L51"         ,   1,         0.0,        -0.0,         0.0,         0.0,         0.0,         0.0
"Line.LINE L51"         ,   2,        -0.0,        -0.0
"Line.LINE L52"         ,   1,      1884.4,       238.6,         0.0,         0.0,         0.0,         0.0
"Line.LINE L52"         ,   2,     -1882.0,      -233.4
"Line.LINE L53"         ,   1,      1842.0,       213.4,         0.0,         0.0,         0.0,         0.0
"Line.LINE L53"         ,   2,     -1840.5,      -210.3
"Line.LINE L54"         ,   1,        39.4,        19.8,         0.0,         0.0,         0.0,         0.0
"Line.LINE L54"         ,   2,       -39.4,       -19.8
"Line.LINE L55"         ,   1,      1801.1,       190.5,         0.0,         0.0,         0.0,         0.0
"Line.LINE L55"         ,   2,     -1797.2,      -182.5
"Line.LINE L56"         ,   1,        20.0,        10.0,         0.0,         0.0,         0.0,         0.0
"Line.LINE L56"         ,   2,       -20.0,       -10.0
"Line.LINE L57"         ,   1,        40.2,        20.2,         0.0,         0.0,         0.0,         0.0
"Line.LINE L57"         ,   2,       -40.2,       -20.2
"Line.LINE L58"         ,   1,      1757.0,       162.4,         0.0,         0.0,         0.0,         0.0
"Line.LINE L58"         ,   2,     -1749.0,      -145.8
"Line.LINE L59"         ,   1,        20.0,        10.0,         0.0,         0.0,         0.0,         0.0
"Line.LINE L59"         ,   2,       -20.0,       -10.0
"Line.LINE L6"          ,   1,        41.1,        20.6,         0.0,         0.0,         0.0,         0.0
"Line.LINE L6"          ,   2,       -41.0,       -20.6
"Line.LINE L60"         ,   1,         0.0,        -0.0,         0.0,         0.0,         0.0,         0.0
"Line.LINE L60"         ,   2,        -0.0,        -0.0
"Line.LINE L66"         ,   1,       120.4,        60.5,         0.0,         0.0,         0.0,         0.0
"Line.LINE L66"         ,   2,      -120.2,       -60.4
"Line.LINE L67"         ,   1,       788.8,      -364.1,         0.0,         0.0,         0.0,         0.0
"Line.LINE L67"         ,   2,      -788.1,       365.5
"Line.LINE L68"         ,   1,       451.0,       227.7,         0.0,         0.0,         0.0,         0.0
"Line.LINE L68"         ,   2,      -450.8,      -227.2
"Line.LINE L69"         ,   1,       100.2,        50.3,         0.0,         0.0,         0.0,         0.0
"Line.LINE L69"         ,   2,      -100.1,       -50.2
"Line.LINE L7"          ,   1,      3304.9,      1093.5,       312.0,       103.2,         0.0,         0.0
"Line.LINE L7"          ,   2,     -3296.7,     -1076.2
"Line.LINE L70"         ,   1,        60.1,        30.2,         0.0,         0.0,         0.0,         0.0
"Line.LINE L70"         ,   2,       -60.0,       -30.1
"Line.LINE L71"         ,   1,        40.0,        20.1,         0.0,         0.0,         0.0,         0.0
"Line.LINE L71"         ,   2,       -40.0,       -20.0
"Line.LINE L72"         ,   1,       122.5,        61.6,         0.0,         0.0,         0.0,         0.0
"Line.LINE L72"         ,   2,      -122.3,       -61.4
"Line.LINE L73"         ,   1,       665.6,      -427.0,         0.0,         0.0,         0.0,         0.0
"Line.LINE L73"         ,   2,      -665.2,       428.0
"Line.LINE L74"         ,   1,        82.3,        41.3,         0.0,         0.0,         0.0,         0.0
"Line.LINE L74"         ,   2,       -82.2,       -41.2
"Line.LINE L75"         ,   1,        40.0,        20.1,         0.0,         0.0,         0.0,         0.0
"Line.LINE L75"         ,   2,       -40.0,       -20.0
"Line.LINE L76"         ,   1,       205.3,      -547.3,         0.0,         0.0,         0.0,         0.0
"Line.LINE L76"         ,   2,      -204.8,       548.2
"Line.LINE L77"         ,   1,       242.1,       -39.7,         0.0,         0.0,         0.0,         0.0
"Line.LINE L77"         ,   2,      -241.9,        40.1
"Line.LINE L78"         ,   1,       164.8,      -568.2,         0.0,         0.0,         0.0,         0.0
"Line.LINE L78"         ,   2,      -164.7,       568.4
"Line.LINE L79"         ,   1,        43.4,        21.7,         0.0,         0.0,         0.0,         0.0
"Line.LINE L79"         ,   2,       -43.3,       -21.7
"Line.LINE L8"          ,   1,        20.0,        10.0,         0.0,         0.0,         0.0,         0.0
"Line.LINE L8"          ,   2,       -20.0,       -10.0
"Line.LINE L80"         ,   1,       121.4,      -590.2,         0.0,         0.0,         0.0,         0.0
"Line.LINE L80"         ,   2,      -120.9,       591.2
"Line.LINE L81"         ,   1,        80.9,      -611.3,         0.0,         0.0,         0.0,         0.0
"Line.LINE L81"         ,   2,       -80.7,       611.7
"Line.LINE L82"         ,   1,        60.6,      -621.7,         0.0,         0.0,         0.0,         0.0
"Line.LINE L82"         ,   2,       -60.3,       622.3
"Line.LINE L83"         ,   1,        20.3,      -642.4,         0.0,         0.0,         0.0,         0.0
"Line.LINE L83"         ,   2,       -20.0,       643.0
"Line.LINE L84"         ,   1,        20.0,        10.0,         0.0,         0.0,         0.0,         0.0
"Line.LINE L84"         ,   2,       -20.0,       -10.0
"Line.LINE L86"         ,   1,       221.9,       -50.1,         0.0,         0.0,         0.0,         0.0
"Line.LINE L86"         ,   2,      -221.8,        50.3
"Line.LINE L87"         ,   1,        40.0,       -33.9,         0.0,         0.0,         0.0,         0.0
"Line.LINE L87"         ,   2,       -40.0,        33.9
"Line.LINE L88"         ,   1,       141.8,       -36.4,         0.0,         0.0,         0.0,         0.0
"Line.LINE L88"         ,   2,      -141.8,        36.5
"Line.LINE L89"         ,   1,        41.7,       -33.3,         0.0,         0.0,         0.0,         0.0
"Line.LINE L89"         ,   2,       -41.7,        33.3
"Line.LINE L9"          ,   1,       100.9,        50.7,         0.0,         0.0,         0.0,         0.0
"Line.LINE L9"          ,   2,      -100.8,       -50.6
"Line.LINE L90"         ,   1,       100.1,        -3.2,         0.0,         0.0,         0.0,         0.0
"Line.LINE L90"         ,   2,      -100.1,         3.2
"Line.LINE L91"         ,   1,        40.0,       -33.3,         0.0,         0.0,         0.0,         0.0
"Line.LINE L91"         ,   2,       -40.0,        33.3
"Line.LINE L92"         ,   1,        60.0,        30.1,         0.0,         0.0,         0.0,         0.0
"Line.LINE L92"         ,   2,       -60.0,       -30.1
"Line.LINE L93"         ,   1,        40.0,        20.1,         0.0,         0.0,         0.0,         0.0
"Line.LINE L93"         ,   2,       -40.0,       -20.0
"Line.LINE L94"         ,   1,        20.0,        10.0,         0.0,         0.0,         0.0,         0.0
"Line.LINE L94"         ,   2,       -20.0,       -10.0
"Line.LINE L96"         ,   1,       122.4,        61.4,         0.0,         0.0,         0.0,         0.0
"Line.LINE L96"         ,   2,      -122.4,       -61.3
"Line.LINE L97"         ,   1,        82.4,        41.3,         0.0,         0.0,         0.0,         0.0
"Line.LINE L97"         ,   2,       -82.3,       -41.3
"Line.LINE L98"         ,   1,        42.3,        21.2,         0.0,         0.0,         0.0,         0.0
"Line.LINE L98"         ,   2,       -42.3,       -21.2
"Line.LINE L99"         ,   1,         0.0,        -0.0,         0.0,         0.0,         0.0,         0.0
"Line.LINE L99"         ,   2,         0.0,         0.0
"Line.LINIE L14"        ,   1,        40.6,        20.3,         0.0,         0.0,         0.0,         0.0
"Line.LINIE L14"        ,   2,       -40.5,       -20.3
"Line.CAP 1"            ,   1,         0.0,      -653.1,         0.0,         0.0,         0.0,         0.0
"Line.CAP 1"            ,   2,         0.0,       653.1
"Line.CAP 2"            ,   1,         0.0,       -54.0,         0.0,         0.0,         0.0,         0.0
