Element, Terminal, P(kW), Q(kvar),  P_Normal, Q_Normal, P_Emergency, Q_Emergency
"Line.CONN 01"          ,   1,      3831.4,      2373.7,         0.0,         0.0,         0.0,         0.0
"Line.CONN 01"          ,   2,     -3831.2,     -2373.6
"Line.CONN 02"          ,   1,       100.0,        60.1,         0.0,         0.0,         0.0,         0.0
"Line.CONN 02"          ,   2,      -100.0,       -60.1
"Line.CONN 03"          ,   1,        90.0,        39.9,         0.0,         0.0,         0.0,         0.0
"Line.CONN 03"          ,   2,       -90.0,       -39.9
"Line.CONN 04"          ,   1,       120.0,        80.0,         0.0,         0.0,         0.0,         0.0
"Line.CONN 04"          ,   2,      -120.0,       -80.0
"Line.CONN 05"          ,   1,        60.0,        30.1,         0.0,         0.0,         0.0,         0.0
"Line.CONN 05"          ,   2,       -60.0,       -30.1
"Line.CONN 06"          ,   1,        60.0,        20.1,         0.0,         0.0,         0.0,         0.0
"Line.CONN 06"          ,   2,       -60.0,       -20.1
"Line.CONN 07"          ,   1,       200.0,       100.2,         0.0,         0.0,         0.0,         0.0
"Line.CONN 07"          ,   2,      -200.0,      -100.2
"Line.CONN 08"          ,   1,       200.0,       100.2,         0.0,         0.0,         0.0,         0.0
"Line.CONN 08"          ,   2,      -200.0,      -100.2
"Line.CONN 09"          ,   1,        60.0,        19.9,         0.0,         0.0,         0.0,         0.0
"Line.CONN 09"          ,   2,       -60.0,       -19.9
"Line.CONN 10"          ,   1,        60.0,        19.9,         0.0,         0.0,         0.0,         0.0
"Line.CONN 10"          ,   2,       -60.0,       -19.9
"Line.CONN 11"          ,   1,        45.0,        30.0,         0.0,         0.0,         0.0,         0.0
"Line.CONN 11"          ,   2,       -45.0,       -30.0
"Line.CONN 12"          ,   1,        60.0,        35.0,         0.0,         0.0,         0.0,         0.0
"Line.CONN 12"          ,   2,       -60.0,       -35.0
"Line.CONN 13"          ,   1,        60.0,        35.0,         0.0,         0.0,         0.0,         0.0
"Line.CONN 13"          ,   2,       -60.0,       -35.0
"Line.CONN 14"          ,   1,       120.0,        80.0,         0.0,         0.0,         0.0,         0.0
"Line.CONN 14"          ,   2,      -120.0,       -80.0
"Line.CONN 15"          ,   1,        60.0,        19.9,         0.0,         0.0,         0.0,         0.0
"Line.CONN 15"          ,   2,       -60.0,       -19.9
"Line.CONN 16"          ,   1,        60.0,        10.1,         0.0,         0.0,         0.0,         0.0
"Line.CONN 16"          ,   2,       -60.0,       -10.1
"Line.CONN 17"          ,   1,        60.0,        19.9,         0.0,         0.0,         0.0,         0.0
"Line.CONN 17"          ,   2,       -60.0,       -19.9
"Line.CONN 18"          ,   1,        90.0,        39.9,         0.0,         0.0,         0.0,         0.0
"Line.CONN 18"          ,   2,       -90.0,       -39.9
"Line.CONN 19"          ,   1,        90.0,        39.9,         0.0,         0.0,         0.0,         0.0
"Line.CONN 19"          ,   2,       -90.0,       -39.9
"Line.CONN 20"          ,   1,        90.0,        39.9,         0.0,         0.0,         0.0,         0.0
"Line.CONN 20"          ,   2,       -90.0,       -39.9
"Line.CONN 21"          ,   1,        90.0,        39.9,         0.0,         0.0,         0.0,         0.0
"Line.CONN 21"          ,   2,       -90.0,       -39.9
"Line.CONN 22"          ,   1,        90.0,        39.9,         0.0,         0.0,         0.0,         0.0
"Line.CONN 22"          ,   2,       -90.0,       -39.9
"Line.CONN 23"          ,   1,        90.0,        50.0,         0.0,         0.0,         0.0,         0.0
"Line.CONN 23"          ,   2,       -90.0,       -50.0
"Line.CONN 24"          ,   1,       420.0,       199.8,         0.0,         0.0,         0.0,         0.0
"Line.CONN 24"          ,   2,      -420.0,      -199.8
"Line.CONN 25"          ,   1,       420.0,       199.8,         0.0,         0.0,         0.0,         0.0
"Line.CONN 25"          ,   2,      -420.0,      -199.8
"Line.CONN 26"          ,   1,        60.0,        25.0,         0.0,         0.0,         0.0,         0.0
"Line.CONN 26"          ,   2,       -60.0,       -25.0
"Line.CONN 27"          ,   1,        60.0,        25.0,         0.0,         0.0,         0.0,         0.0
"Line.CONN 27"          ,   2,       -60.0,       -25.0
"Line.CONN 28"          ,   1,        60.0,        19.9,         0.0,         0.0,         0.0,         0.0
"Line.CONN 28"          ,   2,       -60.0,       -19.9
"Line.CONN 29"          ,   1,       120.0,        69.9,         0.0,         0.0,         0.0,         0.0
"Line.CONN 29"          ,   2,      -120.0,       -69.9
"Line.CONN 30"          ,   1,       200.0,       600.5,         0.0,         0.0,         0.0,         0.0
"Line.CONN 30"          ,   2,      -200.0,      -600.5
"Line.CONN 31"          ,   1,       150.0,        70.1,         0.0,         0.0,         0.0,         0.0
"Line.CONN 31"          ,   2,      -150.0,       -70.1
"Line.CONN 32"          ,   1,       210.0,        99.9,         0.0,         0.0,         0.0,         0.0
"Line.CONN 32"          ,   2,      -210.0,       -99.9
"Line.CONN 33"          ,   1,        60.0,        40.0,         0.0,         0.0,         0.0,         0.0
"Line.CONN 33"          ,   2,       -60.0,       -40.0
"Line.LINE_01"          ,   1,      3831.2,      2373.6,      1035.3,       641.4,         0.0,         0.0
"Line.LINE_01"          ,   2,     -3819.5,     -2367.7
"Line.LINE_02"          ,   1,      2776.9,      1641.1,         0.0,         0.0,         0.0,         0.0
"Line.LINE_02"          ,   2,     -2744.7,     -1624.9
"Line.LINE_03"          ,   1,      1445.2,       776.8,         0.0,         0.0,         0.0,         0.0
"Line.LINE_03"          ,   2,     -1438.9,      -773.8
"Line.LINE_04"          ,   1,      1318.9,       693.8,         0.0,         0.0,         0.0,         0.0
"Line.LINE_04"          ,   2,     -1313.4,      -691.2
"Line.LINE_05"          ,   1,      1253.4,       661.1,         0.0,         0.0,         0.0,         0.0
"Line.LINE_05"          ,   2,     -1252.4,      -660.2
"Line.LINE_06"          ,   1,       490.7,       157.3,         0.0,         0.0,         0.0,         0.0
"Line.LINE_06"          ,   2,      -490.4,      -156.4
"Line.LINE_07"          ,   1,       290.4,        56.2,         0.0,         0.0,         0.0,         0.0
"Line.LINE_07"          ,   2,      -289.4,       -55.7
"Line.LINE_08"          ,   1,       364.2,       193.1,         0.0,         0.0,         0.0,         0.0
"Line.LINE_08"          ,   2,      -363.0,      -192.5
"Line.LINE_09"          ,   1,        85.9,         4.9,         0.0,         0.0,         0.0,         0.0
"Line.LINE_09"          ,   2,       -85.8,        -5.0
"Line.LINE_10"          ,   1,        25.8,       -14.9,         0.0,         0.0,         0.0,         0.0
"Line.LINE_10"          ,   2,       -25.8,        14.7
"Line.LINE_11"          ,   1,       -19.2,       -44.7,         0.0,         0.0,         0.0,         0.0
"Line.LINE_11"          ,   2,        19.2,        44.5
"Line.LINE_12"          ,   1,       209.6,       172.0,         0.0,         0.0,         0.0,         0.0
"Line.LINE_12"          ,   2,      -208.9,      -171.6
"Line.LINE_13"          ,   1,       148.9,       136.6,         0.0,         0.0,         0.0,         0.0
"Line.LINE_13"          ,   2,      -148.7,      -136.6
"Line.LINE_14"          ,   1,       244.9,       223.5,         0.0,         0.0,         0.0,         0.0
"Line.LINE_14"          ,   2,      -244.4,      -223.3
"Line.LINE_15"          ,   1,       184.4,       213.1,         0.0,         0.0,         0.0,         0.0
"Line.LINE_15"          ,   2,      -184.0,      -213.0
"Line.LINE_16"          ,   1,       124.0,       193.1,         0.0,         0.0,         0.0,         0.0
"Line.LINE_16"          ,   2,      -123.6,      -192.7
"Line.LINE_17"          ,   1,        63.6,       172.7,         0.0,         0.0,         0.0,         0.0
"Line.LINE_17"          ,   2,       -63.4,      -172.8
"Line.LINE_18"          ,   1,       942.6,       666.5,         0.0,         0.0,         0.0,         0.0
"Line.LINE_18"          ,   2,      -941.3,      -665.4
"Line.LINE_19"          ,   1,       851.3,       625.4,         0.0,         0.0,         0.0,         0.0
"Line.LINE_19"          ,   2,      -840.7,      -616.1
"Line.LINE_20"          ,   1,       750.7,       576.2,         0.0,         0.0,         0.0,         0.0
"Line.LINE_20"          ,   2,      -748.3,      -573.6
"Line.LINE_21"          ,   1,       381.8,       294.4,         0.0,         0.0,         0.0,         0.0
"Line.LINE_21"          ,   2,      -380.7,      -293.2
"Line.LINE_22"          ,   1,      1209.5,       808.2,         0.0,         0.0,         0.0,         0.0
"Line.LINE_22"          ,   2,     -1203.4,      -804.2
"Line.LINE_23"          ,   1,      1113.4,       754.1,         0.0,         0.0,         0.0,         0.0
"Line.LINE_23"          ,   2,     -1102.8,      -746.0
"Line.LINE_24"          ,   1,       682.8,       546.2,         0.0,         0.0,         0.0,         0.0
"Line.LINE_24"          ,   2,      -678.3,      -542.8
"Line.LINE_25"          ,   1,       701.7,       482.8,         0.0,         0.0,         0.0,         0.0
"Line.LINE_25"          ,   2,      -700.7,      -482.5
"Line.LINE_26"          ,   1,       640.7,       457.5,         0.0,         0.0,         0.0,         0.0
"Line.LINE_26"          ,   2,      -639.5,      -457.1
"Line.LINE_27"          ,   1,       579.5,       432.1,         0.0,         0.0,         0.0,         0.0
"Line.LINE_27"          ,   2,      -575.9,      -429.0
"Line.LINE_28"          ,   1,       515.9,       409.1,         0.0,         0.0,         0.0,         0.0
"Line.LINE_28"          ,   2,      -513.6,      -407.3
"Line.LINE_29"          ,   1,       651.3,       679.9,         0.0,         0.0,         0.0,         0.0
"Line.LINE_29"          ,   2,      -648.2,      -678.6
"Line.LINE_30"          ,   1,       448.2,        78.1,         0.0,         0.0,         0.0,         0.0
"Line.LINE_30"          ,   2,      -446.9,       -76.9
"Line.LINE_31"          ,   1,       296.9,         6.9,         0.0,         0.0,         0.0,         0.0
"Line.LINE_31"          ,   2,      -296.7,        -6.8
"Line.LINE_32"          ,   1,        86.7,       -93.1,         0.0,         0.0,         0.0,         0.0
"Line.LINE_32"          ,   2,       -86.7,        93.0
"Line.LINE_33"          ,   1,       276.5,       239.2,         0.0,         0.0,         0.0,         0.0
"Line.LINE_33"          ,   2,      -274.8,      -237.7
"Line.LINE_34"          ,   1,       217.1,       167.7,         0.0,         0.0,         0.0,         0.0
"Line.LINE_34"          ,   2,      -216.1,      -166.9
"Line.LINE_35"          ,   1,      -288.8,      -251.5,         0.0,         0.0,         0.0,         0.0
"Line.LINE_35"          ,   2,       290.7,       253.2
"Line.LINE_36"          ,   1,       -26.6,       132.8,         0.0,         0.0,         0.0,         0.0
"Line.LINE_36"          ,   2,        26.7,      -133.0
"Line.LINE_37"          ,   1,       258.3,       343.0,         0.0,         0.0,         0.0,         0.0
"Line.LINE_37"          ,   2,      -257.7,      -342.6
"Load.LOAD 02"          ,   1,       100.0,        60.1
"Load.LOAD 03"          ,   1,        90.0,        39.9
"Load.LOAD 04"          ,   1,       120.0,        80.0
"Load.LOAD 05"          ,   1,        60.0,        30.1
"Load.LOAD 06"          ,   1,        60.0,        20.1
"Load.LOAD 07"          ,   1,       200.0,       100.2
"Load.LOAD 08"          ,   1,       200.0,       100.2
"Load.LOAD 09"          ,   1,        60.0,        19.9
"Load.LOAD 10"          ,   1,        60.0,        19.9
"Load.LOAD 11"          ,   1,        45.0,        30.0
"Load.LOAD 12"          ,   1,        60.0,        35.0
"Load.LOAD 13"          ,   1,        60.0,        35.0
"Load.LOAD 14"          ,   1,       120.0,        80.0
"Load.LOAD 15"          ,   1,        60.0,        10.1
"Load.LOAD 16"          ,   1,        60.0,        19.9
"Load.LOAD 17"          ,   1,        60.0,        19.9
"Load.LOAD 18"          ,   1,        90.0,        39.9
"Load.LOAD 19"          ,   1,        90.0,        39.9
"Load.LOAD 20"          ,   1,        90.0,        39.9
"Load.LOAD 21"          ,   1,        90.0,        39.9
"Load.LOAD 22"          ,   1,        90.0,        39.9
"Load.LOAD 23"          ,   1,        90.0,        50.0
"Load.LOAD 24"          ,   1,       420.0,       199.8
"Load.LOAD 25"          ,   1,       420.0,       199.8
"Load.LOAD 26"          ,   1,        60.0,        25.0
"Load.LOAD 27"          ,   1,        60.0,        25.0
"Load.LOAD 28"          ,   1,        60.0,        19.9
"Load.LOAD 29"          ,   1,       120.0,        69.9
"Load.LOAD 30"          ,   1,       200.0,       600.5
"Load.LOAD 31"          ,   1,       150.0,        70.1
"Load.LOAD 32"          ,   1,       210.0,        99.9
"Load.LOAD 33"          ,   1,        60.0,        40.0
